time,"V(3)","V(4)","V(5)","V(6)"
0.000000e+00,0.000000e+00,0.000000e+00,0.000000e+00,0.000000e+00
2.500000e-13,2.287529e-05,9.438653e-06,9.020739e-06,7.447711e-06
5.000000e-13,8.524079e-06,9.389643e-06,8.746384e-06,1.128910e-05
7.500000e-13,1.936084e-05,2.166067e-05,2.029341e-05,2.545818e-05
1.000000e-12,2.966401e-05,3.380083e-05,3.190117e-05,3.858673e-05
1.250000e-12,3.709203e-05,4.312692e-05,4.106229e-05,4.757932e-05
1.500000e-12,4.059859e-05,4.817544e-05,4.632576e-05,5.116676e-05
1.750000e-12,4.054558e-05,4.897645e-05,4.758580e-05,4.998357e-05
2.000000e-12,3.827273e-05,4.676426e-05,4.586634e-05,4.594619e-05
2.250000e-12,3.542759e-05,4.335111e-05,4.278640e-05,4.134205e-05
2.500000e-12,3.336140e-05,4.044632e-05,3.994944e-05,3.802373e-05
2.750000e-12,3.278535e-05,3.915582e-05,3.846917e-05,3.695406e-05
3.000000e-12,3.373162e-05,3.978532e-05,3.875256e-05,3.815620e-05
3.250000e-12,3.574403e-05,4.194312e-05,4.055179e-05,4.096944e-05
3.500000e-12,3.816719e-05,4.484179e-05,4.320771e-05,4.443981e-05
3.750000e-12,4.041132e-05,4.765483e-05,4.596339e-05,4.768334e-05
4.000000e-12,4.211750e-05,4.979915e-05,4.823107e-05,5.012102e-05
4.250000e-12,4.320448e-05,5.106887e-05,4.973875e-05,5.155785e-05
4.500000e-12,4.382144e-05,5.161347e-05,5.054028e-05,5.213511e-05
4.750000e-12,4.425012e-05,5.180700e-05,5.092110e-05,5.221087e-05
5.000000e-12,4.479928e-05,5.207928e-05,5.125796e-05,5.222216e-05
5.250000e-12,2.284676e-05,4.333576e-05,4.286883e-05,4.511944e-05
5.500000e-12,1.516877e-05,3.474256e-05,3.482515e-05,3.411469e-05
5.750000e-12,4.575410e-06,2.287201e-05,2.365783e-05,1.969530e-05
6.000000e-12,-6.527525e-06,1.022596e-05,1.166146e-05,5.383375e-06
6.250000e-12,-1.588131e-05,-7.313296e-07,1.110646e-06,-5.753947e-06
6.500000e-12,-2.208983e-05,-8.314784e-06,-6.412554e-06,-1.203760e-05
6.750000e-12,-2.485801e-05,-1.195012e-05,-1.032285e-05,-1.340871e-05
7.000000e-12,-2.481704e-05,-1.211966e-05,-1.099059e-05,-1.109555e-05
7.250000e-12,-2.310874e-05,-1.002593e-05,-9.449216e-06,-6.968339e-06
7.500000e-12,-2.092986e-05,-7.124327e-06,-6.985081e-06,-2.862024e-06
7.750000e-12,-1.919330e-05,-4.681703e-06,-4.747819e-06,-8.469029e-08
8.000000e-12,-1.837625e-05,-3.480884e-06,-3.485476e-06,7.898100e-07
8.250000e-12,-1.854022e-05,-3.724488e-06,-3.451088e-06,-1.336110e-07
8.500000e-12,-1.945668e-05,-5.122284e-06,-4.467002e-06,-2.292324e-06
8.750000e-12,-2.076227e-05,-7.096479e-06,-6.090524e-06,-4.937868e-06
9.000000e-12,-2.209011e-05,-9.020035e-06,-7.808948e-06,-7.370687e-06
9.250000e-12,-2.315464e-05,-1.041270e-05,-9.201714e-06,-9.093531e-06
9.500000e-12,-2.379151e-05,-1.104826e-05,-1.003302e-05,-9.877091e-06
9.750000e-12,-2.396384e-05,-1.096244e-05,-1.026784e-05,-9.752785e-06
1.000000e-11,-2.374519e-05,-1.038193e-05,-1.002830e-05,-8.954396e-06
1.025000e-11,-2.328575e-05,-9.613938e-06,-9.519534e-06,-7.829746e-06
1.050000e-11,-2.276694e-05,-8.938515e-06,-8.954755e-06,-6.742307e-06
1.075000e-11,-2.235243e-05,-8.535103e-06,-8.500084e-06,-5.982271e-06
1.100000e-11,-2.214696e-05,-8.457012e-06,-8.247790e-06,-5.705186e-06
1.125000e-11,-2.217483e-05,-8.649320e-06,-8.215637e-06,-5.910983e-06
1.150000e-11,-2.238444e-05,-8.993590e-06,-8.363851e-06,-6.466330e-06
1.175000e-11,-2.267642e-05,-9.358968e-06,-8.619811e-06,-7.161147e-06
1.200000e-11,-2.294394e-05,-9.642760e-06,-8.902540e-06,-7.780123e-06
1.225000e-11,-2.310989e-05,-9.791547e-06,-9.142246e-06,-8.166321e-06
1.250000e-11,-2.314772e-05,-9.802313e-06,-9.292929e-06,-8.258098e-06
1.275000e-11,-2.308048e-05,-9.709204e-06,-9.337720e-06,-8.091080e-06
1.300000e-11,-2.296181e-05,-9.564079e-06,-9.287505e-06,-7.769545e-06
1.325000e-11,-2.284922e-05,-9.418176e-06,-9.173978e-06,-7.421405e-06
1.350000e-11,-2.278174e-05,-9.309472e-06,-9.038943e-06,-7.154376e-06
1.375000e-11,-2.276979e-05,-9.257091e-06,-8.922464e-06,-7.027559e-06
1.400000e-11,-2.279887e-05,-9.261780e-06,-8.852780e-06,-7.044619e-06
1.425000e-11,-2.284252e-05,-9.310319e-06,-8.840519e-06,-7.166052e-06
1.450000e-11,-2.287691e-05,-9.381724e-06,-8.878481e-06,-7.332001e-06
1.475000e-11,-2.289043e-05,-9.453573e-06,-8.946554e-06,-7.485504e-06
1.500000e-11,-2.288535e-05,-9.507362e-06,-9.019718e-06,-7.588491e-06
1.525000e-11,-2.287259e-05,-9.532191e-06,-9.076304e-06,-7.627401e-06
1.550000e-11,-2.286385e-05,-9.526322e-06,-9.103851e-06,-7.609739e-06
1.575000e-11,-2.286535e-05,-9.496441e-06,-9.101077e-06,-7.555540e-06
1.600000e-11,-2.287572e-05,-9.454881e-06,-9.075950e-06,-7.488102e-06
1.625000e-11,-2.288838e-05,-9.415549e-06,-9.041221e-06,-7.427072e-06
1.650000e-11,-2.289596e-05,-9.389756e-06,-9.009389e-06,-7.384976e-06
1.675000e-11,-2.289442e-05,-9.383147e-06,-8.988895e-06,-7.366753e-06
1.700000e-11,-2.288470e-05,-9.394667e-06,-8.982543e-06,-7.371064e-06
1.725000e-11,-2.287160e-05,-9.417741e-06,-8.988164e-06,-7.392270e-06
1.750000e-11,-2.286098e-05,-9.443118e-06,-9.000704e-06,-7.422425e-06
1.775000e-11,-2.285686e-05,-9.462264e-06,-9.014658e-06,-7.453104e-06
1.800000e-11,-2.285989e-05,-9.470092e-06,-9.025899e-06,-7.477033e-06
1.825000e-11,-2.286767e-05,-9.466134e-06,-9.032454e-06,-7.489462e-06
1.850000e-11,-2.287632e-05,-9.453957e-06,-9.034307e-06,-7.489010e-06
1.875000e-11,-2.288246e-05,-9.439252e-06,-9.032632e-06,-7.477725e-06
1.900000e-11,-2.288453e-05,-9.427489e-06,-9.028965e-06,-7.460261e-06
1.925000e-11,-2.288297e-05,-9.422042e-06,-9.024632e-06,-7.442348e-06
1.950000e-11,-2.287952e-05,-9.423404e-06,-9.020555e-06,-7.429047e-06
1.975000e-11,-2.287608e-05,-9.429587e-06,-9.017308e-06,-7.423351e-06
2.000000e-11,-2.287385e-05,-9.437341e-06,-9.015250e-06,-7.425564e-06
2.025000e-11,-2.287305e-05,-9.443601e-06,-9.014589e-06,-7.433609e-06
2.050000e-11,-2.287315e-05,-9.446552e-06,-9.015344e-06,-7.444043e-06
2.075000e-11,-2.287348e-05,-9.446006e-06,-9.017267e-06,-7.453352e-06
2.100000e-11,-2.287363e-05,-9.443085e-06,-9.019836e-06,-7.459055e-06
2.125000e-11,-2.287367e-05,-9.439477e-06,-9.022346e-06,-7.460267e-06
2.150000e-11,-2.287390e-05,-9.436668e-06,-9.024118e-06,-7.457641e-06
2.175000e-11,-2.287459e-05,-9.435426e-06,-9.024719e-06,-7.452829e-06
2.200000e-11,-2.287571e-05,-9.435712e-06,-9.024102e-06,-7.447739e-06
2.225000e-11,-2.287689e-05,-9.436920e-06,-9.022606e-06,-7.443890e-06
2.250000e-11,-2.287764e-05,-9.438283e-06,-9.020809e-06,-7.442048e-06
2.275000e-11,-2.287760e-05,-9.439233e-06,-9.019309e-06,-7.442198e-06
2.300000e-11,-2.287675e-05,-9.439566e-06,-9.018518e-06,-7.443764e-06
2.325000e-11,-2.287540e-05,-9.439412e-06,-9.018548e-06,-7.445943e-06
2.350000e-11,-2.287411e-05,-9.439063e-06,-9.019223e-06,-7.447999e-06
2.375000e-11,-2.287336e-05,-9.438783e-06,-9.020193e-06,-7.449452e-06
2.400000e-11,-2.287338e-05,-9.438687e-06,-9.021089e-06,-7.450115e-06
2.425000e-11,-2.287406e-05,-9.438731e-06,-9.021654e-06,-7.450048e-06
2.450000e-11,-2.287507e-05,-9.438789e-06,-9.021802e-06,-7.449459e-06
2.475000e-11,-2.287598e-05,-9.438753e-06,-9.021608e-06,-7.448604e-06
2.500000e-11,-2.287646e-05,-9.438600e-06,-9.021231e-06,-7.447726e-06
2.525000e-11,-2.287644e-05,-9.438398e-06,-9.020841e-06,-7.447015e-06
2.550000e-11,-2.287602e-05,-9.438258e-06,-9.020552e-06,-7.446593e-06
2.575000e-11,-2.287545e-05,-9.438266e-06,-9.020405e-06,-7.446506e-06
2.600000e-11,-2.287498e-05,-9.438434e-06,-9.020382e-06,-7.446724e-06
2.625000e-11,-2.287476e-05,-9.438694e-06,-9.020435e-06,-7.447155e-06
2.650000e-11,-2.287478e-05,-9.438936e-06,-9.020522e-06,-7.447665e-06
2.675000e-11,-2.287498e-05,-9.439058e-06,-9.020617e-06,-7.448111e-06
2.700000e-11,-2.287520e-05,-9.439016e-06,-9.020711e-06,-7.448383e-06
2.725000e-11,-2.287537e-05,-9.438839e-06,-9.020800e-06,-7.448427e-06
2.750000e-11,-2.287543e-05,-9.438609e-06,-9.020877e-06,-7.448264e-06
2.775000e-11,-2.287541e-05,-9.438421e-06,-9.020926e-06,-7.447970e-06
2.800000e-11,-2.287537e-05,-9.438344e-06,-9.020931e-06,-7.447652e-06
2.825000e-11,-2.287533e-05,-9.438393e-06,-9.020886e-06,-7.447407e-06
2.850000e-11,-2.287532e-05,-9.438532e-06,-9.020801e-06,-7.447296e-06
2.875000e-11,-2.287533e-05,-9.438694e-06,-9.020701e-06,-7.447328e-06
2.900000e-11,-2.287533e-05,-9.438813e-06,-9.020618e-06,-7.447467e-06
2.925000e-11,-2.287531e-05,-9.438851e-06,-9.020578e-06,-7.447650e-06
2.950000e-11,-2.287527e-05,-9.438810e-06,-9.020592e-06,-7.447812e-06
2.975000e-11,-2.287523e-05,-9.438719e-06,-9.020651e-06,-7.447910e-06
3.000000e-11,-2.287520e-05,-9.438622e-06,-9.020730e-06,-7.447927e-06
3.025000e-11,-2.287521e-05,-9.438557e-06,-9.020801e-06,-7.447877e-06
3.050000e-11,-2.287525e-05,-9.438541e-06,-9.020841e-06,-7.447790e-06
3.075000e-11,-2.287530e-05,-9.438570e-06,-9.020842e-06,-7.447702e-06
3.100000e-11,-2.287535e-05,-9.438621e-06,-9.020810e-06,-7.447638e-06
3.125000e-11,-2.287536e-05,-9.438672e-06,-9.020761e-06,-7.447612e-06
3.150000e-11,-2.287535e-05,-9.438702e-06,-9.020715e-06,-7.447620e-06
3.175000e-11,-2.287532e-05,-9.438707e-06,-9.020686e-06,-7.447651e-06
3.200000e-11,-2.287528e-05,-9.438691e-06,-9.020680e-06,-7.447691e-06
3.225000e-11,-2.287525e-05,-9.438666e-06,-9.020693e-06,-7.447726e-06
3.250000e-11,-2.287525e-05,-9.438644e-06,-9.020717e-06,-7.447747e-06
3.275000e-11,-2.287526e-05,-9.438632e-06,-9.020742e-06,-7.447754e-06
3.300000e-11,-2.287528e-05,-9.438632e-06,-9.020758e-06,-7.447748e-06
3.325000e-11,-2.287530e-05,-9.438638e-06,-9.020765e-06,-7.447734e-06
3.350000e-11,-2.287531e-05,-9.438648e-06,-9.020762e-06,-7.447718e-06
3.375000e-11,-2.287531e-05,-9.438655e-06,-9.020754e-06,-7.447705e-06
3.400000e-11,-2.287530e-05,-9.438658e-06,-9.020744e-06,-7.447696e-06
3.425000e-11,-2.287529e-05,-9.438658e-06,-9.020736e-06,-7.447693e-06
3.450000e-11,-2.287529e-05,-9.438656e-06,-9.020731e-06,-7.447695e-06
3.475000e-11,-2.287529e-05,-9.438655e-06,-9.020729e-06,-7.447701e-06
3.500000e-11,-2.287529e-05,-9.438654e-06,-9.020730e-06,-7.447708e-06
3.525000e-11,-2.287529e-05,-9.438654e-06,-9.020732e-06,-7.447715e-06
3.550000e-11,-2.287529e-05,-9.438654e-06,-9.020734e-06,-7.447719e-06
3.575000e-11,-2.287529e-05,-9.438653e-06,-9.020738e-06,-7.447720e-06
3.600000e-11,-2.287529e-05,-9.438652e-06,-9.020741e-06,-7.447719e-06
3.625000e-11,-2.287529e-05,-9.438650e-06,-9.020743e-06,-7.447716e-06
3.650000e-11,-2.287529e-05,-9.438650e-06,-9.020745e-06,-7.447712e-06
3.675000e-11,-2.287529e-05,-9.438650e-06,-9.020744e-06,-7.447709e-06
3.700000e-11,-2.287529e-05,-9.438652e-06,-9.020742e-06,-7.447707e-06
3.725000e-11,-2.287529e-05,-9.438654e-06,-9.020740e-06,-7.447707e-06
3.750000e-11,-2.287530e-05,-9.438655e-06,-9.020737e-06,-7.447708e-06
3.775000e-11,-2.287529e-05,-9.438656e-06,-9.020735e-06,-7.447710e-06
3.800000e-11,-2.287529e-05,-9.438655e-06,-9.020734e-06,-7.447712e-06
3.825000e-11,-2.287529e-05,-9.438654e-06,-9.020735e-06,-7.447713e-06
3.850000e-11,-2.287529e-05,-9.438652e-06,-9.020737e-06,-7.447714e-06
3.875000e-11,-2.287529e-05,-9.438651e-06,-9.020739e-06,-7.447713e-06
3.900000e-11,-2.287529e-05,-9.438651e-06,-9.020741e-06,-7.447713e-06
3.925000e-11,-2.287529e-05,-9.438651e-06,-9.020742e-06,-7.447712e-06
3.950000e-11,-2.287529e-05,-9.438652e-06,-9.020741e-06,-7.447711e-06
3.975000e-11,-2.287529e-05,-9.438653e-06,-9.020740e-06,-7.447711e-06
4.000000e-11,-2.287529e-05,-9.438654e-06,-9.020739e-06,-7.447711e-06
4.025000e-11,-2.287529e-05,-9.438654e-06,-9.020738e-06,-7.447711e-06
4.050000e-11,-2.287529e-05,-9.438653e-06,-9.020737e-06,-7.447711e-06
4.075000e-11,-2.287529e-05,-9.438653e-06,-9.020737e-06,-7.447711e-06
4.100000e-11,-2.287529e-05,-9.438653e-06,-9.020738e-06,-7.447712e-06
4.125000e-11,-2.287529e-05,-9.438652e-06,-9.020739e-06,-7.447712e-06
4.150000e-11,-2.287529e-05,-9.438652e-06,-9.020739e-06,-7.447712e-06
4.175000e-11,-2.287529e-05,-9.438653e-06,-9.020739e-06,-7.447712e-06
4.200000e-11,-2.287529e-05,-9.438653e-06,-9.020739e-06,-7.447711e-06
4.225000e-11,-2.287529e-05,-9.438653e-06,-9.020739e-06,-7.447711e-06
4.250000e-11,-2.287529e-05,-9.438653e-06,-9.020739e-06,-7.447711e-06
4.275000e-11,-2.287529e-05,-9.438653e-06,-9.020739e-06,-7.447711e-06
4.300000e-11,-2.287529e-05,-9.438653e-06,-9.020739e-06,-7.447711e-06
4.325000e-11,-2.287529e-05,-9.438653e-06,-9.020739e-06,-7.447711e-06
4.350000e-11,-2.287529e-05,-9.438653e-06,-9.020739e-06,-7.447711e-06
4.375000e-11,-2.287529e-05,-9.438653e-06,-9.020739e-06,-7.447711e-06
4.400000e-11,-2.287529e-05,-9.438653e-06,-9.020739e-06,-7.447711e-06
4.425000e-11,-2.287529e-05,-9.438653e-06,-9.020739e-06,-7.447711e-06
4.450000e-11,-2.287529e-05,-9.438653e-06,-9.020739e-06,-7.447711e-06
4.475000e-11,-2.287529e-05,-9.438653e-06,-9.020739e-06,-7.447711e-06
4.500000e-11,-2.287529e-05,-9.438653e-06,-9.020739e-06,-7.447711e-06
4.525000e-11,-2.287529e-05,-9.438653e-06,-9.020739e-06,-7.447712e-06
4.550000e-11,-2.287529e-05,-9.438653e-06,-9.020739e-06,-7.447712e-06
4.575000e-11,-2.287529e-05,-9.438653e-06,-9.020739e-06,-7.447712e-06
4.600000e-11,-2.287529e-05,-9.438653e-06,-9.020739e-06,-7.447711e-06
4.625000e-11,-2.287529e-05,-9.438653e-06,-9.020739e-06,-7.447711e-06
4.650000e-11,-2.287529e-05,-9.438653e-06,-9.020739e-06,-7.447711e-06
4.675000e-11,-2.287529e-05,-9.438653e-06,-9.020739e-06,-7.447711e-06
4.700000e-11,-2.287529e-05,-9.438653e-06,-9.020739e-06,-7.447711e-06
4.725000e-11,-2.287529e-05,-9.438653e-06,-9.020739e-06,-7.447711e-06
4.750000e-11,-2.287529e-05,-9.438653e-06,-9.020739e-06,-7.447711e-06
4.775000e-11,-2.287529e-05,-9.438653e-06,-9.020739e-06,-7.447711e-06
4.800000e-11,-2.287529e-05,-9.438653e-06,-9.020739e-06,-7.447711e-06
4.825000e-11,-2.287529e-05,-9.438653e-06,-9.020739e-06,-7.447711e-06
4.850000e-11,-2.287529e-05,-9.438653e-06,-9.020739e-06,-7.447711e-06
4.875000e-11,-2.287529e-05,-9.438653e-06,-9.020739e-06,-7.447711e-06
4.900000e-11,-2.287529e-05,-9.438653e-06,-9.020739e-06,-7.447711e-06
4.925000e-11,-2.287529e-05,-9.438653e-06,-9.020739e-06,-7.447711e-06
4.950000e-11,-2.287529e-05,-9.438653e-06,-9.020739e-06,-7.447711e-06
4.975000e-11,-2.287529e-05,-9.438653e-06,-9.020739e-06,-7.447711e-06
5.000000e-11,-2.287529e-05,-9.438653e-06,-9.020739e-06,-7.447711e-06
5.025000e-11,-2.287529e-05,-9.438653e-06,-9.020739e-06,-7.447711e-06
5.050000e-11,-2.287529e-05,-9.438653e-06,-9.020739e-06,-7.447711e-06
5.075000e-11,-2.287529e-05,-9.438653e-06,-9.020739e-06,-7.447711e-06
5.100000e-11,-2.287529e-05,-9.438653e-06,-9.020739e-06,-7.447711e-06
5.125000e-11,-2.287529e-05,-9.438653e-06,-9.020739e-06,-7.447711e-06
5.150000e-11,-2.287529e-05,-9.438653e-06,-9.020739e-06,-7.447711e-06
5.175000e-11,-2.287529e-05,-9.438653e-06,-9.020739e-06,-7.447711e-06
5.200000e-11,-2.287529e-05,-9.438653e-06,-9.020739e-06,-7.447711e-06
5.225000e-11,-2.287529e-05,-9.438653e-06,-9.020739e-06,-7.447711e-06
5.250000e-11,-2.287529e-05,-9.438653e-06,-9.020739e-06,-7.447711e-06
5.275000e-11,-2.287529e-05,-9.438653e-06,-9.020739e-06,-7.447711e-06
5.300000e-11,-2.287529e-05,-9.438653e-06,-9.020739e-06,-7.447711e-06
5.325000e-11,-2.287529e-05,-9.438653e-06,-9.020739e-06,-7.447711e-06
5.350000e-11,-2.287529e-05,-9.438653e-06,-9.020739e-06,-7.447711e-06
5.375000e-11,-2.287529e-05,-9.438653e-06,-9.020739e-06,-7.447711e-06
5.400000e-11,-2.287529e-05,-9.438653e-06,-9.020739e-06,-7.447711e-06
5.425000e-11,-2.287529e-05,-9.438653e-06,-9.020739e-06,-7.447711e-06
5.450000e-11,-2.287529e-05,-9.438653e-06,-9.020739e-06,-7.447711e-06
5.475000e-11,-2.287529e-05,-9.438653e-06,-9.020739e-06,-7.447711e-06
5.500000e-11,-2.287529e-05,-9.438653e-06,-9.020739e-06,-7.447711e-06
5.525000e-11,-2.287529e-05,-9.438653e-06,-9.020739e-06,-7.447711e-06
5.550000e-11,-2.287529e-05,-9.438653e-06,-9.020739e-06,-7.447711e-06
5.575000e-11,-2.287529e-05,-9.438653e-06,-9.020739e-06,-7.447711e-06
5.600000e-11,-2.287529e-05,-9.438653e-06,-9.020739e-06,-7.447711e-06
5.625000e-11,-2.287529e-05,-9.438653e-06,-9.020739e-06,-7.447711e-06
5.650000e-11,-2.287529e-05,-9.438653e-06,-9.020739e-06,-7.447711e-06
5.675000e-11,-2.287529e-05,-9.438653e-06,-9.020739e-06,-7.447711e-06
5.700000e-11,-2.287529e-05,-9.438653e-06,-9.020739e-06,-7.447711e-06
5.725000e-11,-2.287529e-05,-9.438653e-06,-9.020739e-06,-7.447711e-06
5.750000e-11,-2.287529e-05,-9.438653e-06,-9.020739e-06,-7.447711e-06
5.775000e-11,-2.287529e-05,-9.438653e-06,-9.020739e-06,-7.447711e-06
5.800000e-11,-2.287529e-05,-9.438653e-06,-9.020739e-06,-7.447711e-06
5.825000e-11,-2.287529e-05,-9.438653e-06,-9.020739e-06,-7.447711e-06
5.850000e-11,-2.287529e-05,-9.438653e-06,-9.020739e-06,-7.447711e-06
5.875000e-11,-2.287529e-05,-9.438653e-06,-9.020739e-06,-7.447711e-06
5.900000e-11,-2.287529e-05,-9.438653e-06,-9.020739e-06,-7.447711e-06
5.925000e-11,-2.287529e-05,-9.438653e-06,-9.020739e-06,-7.447711e-06
5.950000e-11,-2.287529e-05,-9.438653e-06,-9.020739e-06,-7.447711e-06
5.975000e-11,-2.287529e-05,-9.438653e-06,-9.020739e-06,-7.447711e-06
6.000000e-11,-2.287529e-05,-9.438653e-06,-9.020739e-06,-7.447711e-06
6.025000e-11,-2.287529e-05,-9.438653e-06,-9.020739e-06,-7.447711e-06
6.050000e-11,-2.287529e-05,-9.438653e-06,-9.020739e-06,-7.447711e-06
6.075000e-11,-2.287529e-05,-9.438653e-06,-9.020739e-06,-7.447711e-06
6.100000e-11,-2.287529e-05,-9.438653e-06,-9.020739e-06,-7.447711e-06
6.125000e-11,-2.287529e-05,-9.438653e-06,-9.020739e-06,-7.447711e-06
6.150000e-11,-2.287529e-05,-9.438653e-06,-9.020739e-06,-7.447711e-06
6.175000e-11,-2.287529e-05,-9.438653e-06,-9.020739e-06,-7.447711e-06
6.200000e-11,-2.287529e-05,-9.438653e-06,-9.020739e-06,-7.447711e-06
6.225000e-11,-2.287529e-05,-9.438653e-06,-9.020739e-06,-7.447711e-06
6.250000e-11,-2.287529e-05,-9.438653e-06,-9.020739e-06,-7.447711e-06
6.275000e-11,-2.287529e-05,-9.438653e-06,-9.020739e-06,-7.447711e-06
6.300000e-11,-2.287529e-05,-9.438653e-06,-9.020739e-06,-7.447711e-06
6.325000e-11,-2.287529e-05,-9.438653e-06,-9.020739e-06,-7.447711e-06
6.350000e-11,-2.287529e-05,-9.438653e-06,-9.020739e-06,-7.447711e-06
6.375000e-11,-2.287529e-05,-9.438653e-06,-9.020739e-06,-7.447711e-06
6.400000e-11,-2.287529e-05,-9.438653e-06,-9.020739e-06,-7.447711e-06
6.425000e-11,-2.287529e-05,-9.438653e-06,-9.020739e-06,-7.447711e-06
6.450000e-11,-2.287529e-05,-9.438653e-06,-9.020739e-06,-7.447711e-06
6.475000e-11,-2.287529e-05,-9.438653e-06,-9.020739e-06,-7.447711e-06
6.500000e-11,-2.287529e-05,-9.438653e-06,-9.020739e-06,-7.447711e-06
6.525000e-11,-2.287529e-05,-9.438653e-06,-9.020739e-06,-7.447711e-06
6.550000e-11,-2.287529e-05,-9.438653e-06,-9.020739e-06,-7.447711e-06
6.575000e-11,-2.287529e-05,-9.438653e-06,-9.020739e-06,-7.447711e-06
6.600000e-11,-2.287529e-05,-9.438653e-06,-9.020739e-06,-7.447711e-06
6.625000e-11,-2.287529e-05,-9.438653e-06,-9.020739e-06,-7.447711e-06
6.650000e-11,-2.287529e-05,-9.438653e-06,-9.020739e-06,-7.447711e-06
6.675000e-11,-2.287529e-05,-9.438653e-06,-9.020739e-06,-7.447711e-06
6.700000e-11,-2.287529e-05,-9.438653e-06,-9.020739e-06,-7.447711e-06
6.725000e-11,-2.287529e-05,-9.438653e-06,-9.020739e-06,-7.447711e-06
6.750000e-11,-2.287529e-05,-9.438653e-06,-9.020739e-06,-7.447711e-06
6.775000e-11,-2.287529e-05,-9.438653e-06,-9.020739e-06,-7.447711e-06
6.800000e-11,-2.287529e-05,-9.438653e-06,-9.020739e-06,-7.447711e-06
6.825000e-11,-2.287529e-05,-9.438653e-06,-9.020739e-06,-7.447711e-06
6.850000e-11,-2.287529e-05,-9.438653e-06,-9.020739e-06,-7.447711e-06
6.875000e-11,-2.287529e-05,-9.438653e-06,-9.020739e-06,-7.447711e-06
6.900000e-11,-2.287529e-05,-9.438653e-06,-9.020739e-06,-7.447711e-06
6.925000e-11,-2.287529e-05,-9.438653e-06,-9.020739e-06,-7.447711e-06
6.950000e-11,-2.287529e-05,-9.438653e-06,-9.020739e-06,-7.447711e-06
6.975000e-11,-2.287529e-05,-9.438653e-06,-9.020739e-06,-7.447711e-06
7.000000e-11,-2.287529e-05,-9.438653e-06,-9.020739e-06,-7.447711e-06
7.025000e-11,-2.287529e-05,-9.438653e-06,-9.020739e-06,-7.447711e-06
7.050000e-11,-2.287529e-05,-9.438653e-06,-9.020739e-06,-7.447711e-06
7.075000e-11,-2.287529e-05,-9.438653e-06,-9.020739e-06,-7.447711e-06
7.100000e-11,-2.287529e-05,-9.438653e-06,-9.020739e-06,-7.447711e-06
7.125000e-11,-2.287529e-05,-9.438653e-06,-9.020739e-06,-7.447711e-06
7.150000e-11,-2.287529e-05,-9.438653e-06,-9.020739e-06,-7.447711e-06
7.175000e-11,-2.287529e-05,-9.438653e-06,-9.020739e-06,-7.447711e-06
7.200000e-11,-2.287529e-05,-9.438653e-06,-9.020739e-06,-7.447711e-06
7.225000e-11,-2.287529e-05,-9.438653e-06,-9.020739e-06,-7.447711e-06
