time,"I(I0)","V(3)"
0.000000e+00,0.000000e+00,0.000000e+00
2.500000e-13,0.000000e+00,1.091421e-05
5.000000e-13,0.000000e+00,1.057723e-05
7.500000e-13,0.000000e+00,2.437209e-05
1.000000e-12,0.000000e+00,3.790934e-05
1.250000e-12,0.000000e+00,4.809432e-05
1.500000e-12,0.000000e+00,5.324022e-05
1.750000e-12,0.000000e+00,5.339781e-05
2.000000e-12,0.000000e+00,5.003980e-05
2.250000e-12,0.000000e+00,4.534703e-05
2.500000e-12,0.000000e+00,4.141220e-05
2.750000e-12,0.000000e+00,3.963192e-05
3.000000e-12,0.000000e+00,4.043801e-05
3.250000e-12,0.000000e+00,4.338043e-05
3.500000e-12,0.000000e+00,4.746176e-05
3.750000e-12,0.000000e+00,5.156595e-05
4.000000e-12,0.000000e+00,5.482818e-05
4.250000e-12,0.000000e+00,5.684492e-05
4.500000e-12,0.000000e+00,5.769701e-05
4.750000e-12,0.000000e+00,5.782370e-05
5.000000e-12,0.000000e+00,5.782256e-05
5.250000e-12,0.000000e+00,4.733945e-05
5.500000e-12,0.000000e+00,3.732999e-05
5.750000e-12,0.000000e+00,2.369636e-05
6.000000e-12,0.000000e+00,9.303420e-06
6.250000e-12,0.000000e+00,-3.039322e-06
6.500000e-12,0.000000e+00,-1.139112e-05
6.750000e-12,0.000000e+00,-1.505686e-05
7.000000e-12,0.000000e+00,-1.455609e-05
7.250000e-12,0.000000e+00,-1.127987e-05
7.500000e-12,0.000000e+00,-6.981763e-06
7.750000e-12,0.000000e+00,-3.267163e-06
8.000000e-12,0.000000e+00,-1.218276e-06
8.250000e-12,0.000000e+00,-1.229114e-06
8.500000e-12,0.000000e+00,-3.051212e-06
8.750000e-12,0.000000e+00,-5.993334e-06
9.000000e-12,0.000000e+00,-9.191025e-06
9.250000e-12,0.000000e+00,-1.186380e-05
9.500000e-12,0.000000e+00,-1.349928e-05
9.750000e-12,0.000000e+00,-1.393376e-05
1.000000e-11,0.000000e+00,-1.332955e-05
1.025000e-11,1.500000e-06,-1.207379e-05
1.050000e-11,3.000000e-06,-1.063915e-05
1.075000e-11,4.500000e-06,-9.448592e-06
1.100000e-11,6.000000e-06,-8.778236e-06
1.125000e-11,7.500000e-06,-8.715939e-06
1.150000e-11,9.000000e-06,-9.175374e-06
1.175000e-11,1.050000e-05,-9.951348e-06
1.200000e-11,1.200000e-05,-1.079450e-05
1.225000e-11,1.350000e-05,-1.148302e-05
1.250000e-11,1.500000e-05,-1.187403e-05
1.275000e-11,1.650000e-05,-1.192573e-05
1.300000e-11,1.800000e-05,-1.168988e-05
1.325000e-11,1.950000e-05,-1.128196e-05
1.350000e-11,2.100000e-05,-1.084036e-05
1.375000e-11,2.250000e-05,-1.048691e-05
1.400000e-11,2.400000e-05,-1.029869e-05
1.425000e-11,2.550000e-05,-1.029608e-05
1.450000e-11,2.700000e-05,-1.044760e-05
1.475000e-11,2.850000e-05,-1.068715e-05
1.500000e-11,3.000000e-05,-1.093723e-05
1.525000e-11,3.150000e-05,-1.113105e-05
1.550000e-11,3.300000e-05,-1.122817e-05
1.575000e-11,3.450000e-05,-1.122051e-05
1.600000e-11,3.600000e-05,-1.112894e-05
1.625000e-11,3.750000e-05,-1.099283e-05
1.650000e-11,3.900000e-05,-1.085641e-05
1.675000e-11,4.050000e-05,-1.075628e-05
1.700000e-11,4.200000e-05,-1.071288e-05
1.725000e-11,4.350000e-05,-1.072791e-05
1.750000e-11,4.500000e-05,-1.078707e-05
1.775000e-11,4.650000e-05,-1.086669e-05
1.800000e-11,4.800000e-05,-1.094178e-05
1.825000e-11,4.950000e-05,-1.099300e-05
1.850000e-11,5.100000e-05,-1.101092e-05
1.875000e-11,5.250000e-05,-1.099684e-05
1.900000e-11,5.400000e-05,-1.096055e-05
1.925000e-11,5.550000e-05,-1.091608e-05
1.950000e-11,5.700000e-05,-1.087716e-05
1.975000e-11,5.850000e-05,-1.085344e-05
2.000000e-11,6.000000e-05,-1.084861e-05
2.025000e-11,6.150000e-05,-1.086050e-05
2.050000e-11,6.300000e-05,-1.088271e-05
2.075000e-11,6.450000e-05,-1.090723e-05
2.100000e-11,6.600000e-05,-1.092695e-05
2.125000e-11,6.750000e-05,-1.093745e-05
2.150000e-11,6.900000e-05,-1.093769e-05
2.175000e-11,7.050000e-05,-1.092970e-05
2.200000e-11,7.200000e-05,-1.091735e-05
2.225000e-11,7.350000e-05,-1.090494e-05
2.250000e-11,7.500000e-05,-1.089592e-05
2.275000e-11,7.650000e-05,-1.089210e-05
2.300000e-11,7.800000e-05,-1.089347e-05
2.325000e-11,7.950000e-05,-1.089861e-05
2.350000e-11,8.100000e-05,-1.090536e-05
2.375000e-11,8.250000e-05,-1.091156e-05
2.400000e-11,8.400000e-05,-1.091568e-05
2.425000e-11,8.550000e-05,-1.091707e-05
2.450000e-11,8.700000e-05,-1.091598e-05
2.475000e-11,8.850000e-05,-1.091326e-05
2.500000e-11,9.000000e-05,-1.091001e-05
2.525000e-11,9.150000e-05,-1.090723e-05
2.550000e-11,9.300000e-05,-1.090557e-05
2.575000e-11,9.450000e-05,-1.090522e-05
2.600000e-11,9.600000e-05,-1.090599e-05
2.625000e-11,9.750000e-05,-1.090744e-05
2.650000e-11,9.900000e-05,-1.090905e-05
2.675000e-11,1.005000e-04,-1.091038e-05
2.700000e-11,1.020000e-04,-1.091116e-05
2.725000e-11,1.035000e-04,-1.091133e-05
2.750000e-11,1.050000e-04,-1.091099e-05
2.775000e-11,1.065000e-04,-1.091034e-05
2.800000e-11,1.080000e-04,-1.090961e-05
2.825000e-11,1.095000e-04,-1.090899e-05
2.850000e-11,1.110000e-04,-1.090862e-05
2.875000e-11,1.125000e-04,-1.090853e-05
2.900000e-11,1.140000e-04,-1.090869e-05
2.925000e-11,1.155000e-04,-1.090900e-05
2.950000e-11,1.170000e-04,-1.090936e-05
2.975000e-11,1.185000e-04,-1.090968e-05
3.000000e-11,1.200000e-04,-1.090988e-05
3.025000e-11,1.215000e-04,-1.090993e-05
3.050000e-11,1.230000e-04,-1.090984e-05
3.075000e-11,1.245000e-04,-1.090965e-05
3.100000e-11,1.260000e-04,-1.090942e-05
3.125000e-11,1.275000e-04,-1.090920e-05
3.150000e-11,1.290000e-04,-1.090904e-05
3.175000e-11,1.305000e-04,-1.090896e-05
3.200000e-11,1.320000e-04,-1.090896e-05
3.225000e-11,1.335000e-04,-1.090902e-05
3.250000e-11,1.350000e-04,-1.090910e-05
3.275000e-11,1.365000e-04,-1.090917e-05
3.300000e-11,1.380000e-04,-1.090919e-05
3.325000e-11,1.395000e-04,-1.090915e-05
3.350000e-11,1.410000e-04,-1.090907e-05
3.375000e-11,1.425000e-04,-1.090894e-05
3.400000e-11,1.440000e-04,-1.090881e-05
3.425000e-11,1.455000e-04,-1.090868e-05
3.450000e-11,1.470000e-04,-1.090858e-05
3.475000e-11,1.485000e-04,-1.090851e-05
3.500000e-11,1.500000e-04,-1.090846e-05
3.525000e-11,1.515000e-04,-1.090842e-05
3.550000e-11,1.530000e-04,-1.090838e-05
3.575000e-11,1.545000e-04,-1.090833e-05
3.600000e-11,1.560000e-04,-1.090825e-05
3.625000e-11,1.575000e-04,-1.090816e-05
3.650000e-11,1.590000e-04,-1.090804e-05
3.675000e-11,1.605000e-04,-1.090792e-05
3.700000e-11,1.620000e-04,-1.090780e-05
3.725000e-11,1.635000e-04,-1.090768e-05
3.750000e-11,1.650000e-04,-1.090756e-05
3.775000e-11,1.665000e-04,-1.090745e-05
3.800000e-11,1.680000e-04,-1.090734e-05
3.825000e-11,1.695000e-04,-1.090723e-05
3.850000e-11,1.710000e-04,-1.090711e-05
3.875000e-11,1.725000e-04,-1.090698e-05
3.900000e-11,1.740000e-04,-1.090684e-05
3.925000e-11,1.755000e-04,-1.090669e-05
3.950000e-11,1.770000e-04,-1.090654e-05
3.975000e-11,1.785000e-04,-1.090637e-05
4.000000e-11,1.800000e-04,-1.090621e-05
4.025000e-11,1.815000e-04,-1.090603e-05
4.050000e-11,1.830000e-04,-1.090586e-05
4.075000e-11,1.845000e-04,-1.090568e-05
4.100000e-11,1.860000e-04,-1.090549e-05
4.125000e-11,1.875000e-04,-1.090530e-05
4.150000e-11,1.890000e-04,-1.090509e-05
4.175000e-11,1.905000e-04,-1.090488e-05
4.200000e-11,1.920000e-04,-1.090465e-05
4.225000e-11,1.935000e-04,-1.090442e-05
4.250000e-11,1.950000e-04,-1.090417e-05
4.275000e-11,1.965000e-04,-1.090392e-05
4.300000e-11,1.980000e-04,-1.090365e-05
4.325000e-11,1.995000e-04,-1.090338e-05
4.350000e-11,2.010000e-04,-1.090309e-05
4.375000e-11,2.025000e-04,-1.090279e-05
4.400000e-11,2.040000e-04,-1.090247e-05
4.425000e-11,2.055000e-04,-1.090214e-05
4.450000e-11,2.070000e-04,-1.090179e-05
4.475000e-11,2.085000e-04,-1.090143e-05
4.500000e-11,2.100000e-04,-1.090105e-05
4.525000e-11,2.115000e-04,-1.090064e-05
4.550000e-11,2.130000e-04,-1.090022e-05
4.575000e-11,2.145000e-04,-1.089978e-05
4.600000e-11,2.160000e-04,-1.089931e-05
4.625000e-11,2.175000e-04,-1.089882e-05
4.650000e-11,2.190000e-04,-1.089830e-05
4.675000e-11,2.205000e-04,-1.089775e-05
4.700000e-11,2.220000e-04,-1.089716e-05
4.725000e-11,2.235000e-04,-1.089655e-05
4.750000e-11,2.250000e-04,-1.089590e-05
4.775000e-11,2.265000e-04,-1.089521e-05
4.800000e-11,2.280000e-04,-1.089447e-05
4.825000e-11,2.295000e-04,-1.089369e-05
4.850000e-11,2.310000e-04,-1.089285e-05
4.875000e-11,2.325000e-04,-1.089196e-05
4.900000e-11,2.340000e-04,-1.089101e-05
4.925000e-11,2.355000e-04,-1.088999e-05
4.950000e-11,2.370000e-04,-1.088890e-05
4.975000e-11,2.385000e-04,-1.088772e-05
5.000000e-11,2.400000e-04,-1.088646e-05
5.025000e-11,2.415000e-04,-1.088510e-05
5.050000e-11,2.430000e-04,-1.088362e-05
5.075000e-11,2.445000e-04,-1.088203e-05
5.100000e-11,2.460000e-04,-1.088029e-05
5.125000e-11,2.475000e-04,-1.087841e-05
5.150000e-11,2.490000e-04,-1.087635e-05
5.175000e-11,2.505000e-04,-1.087409e-05
5.200000e-11,2.520000e-04,-1.087162e-05
5.225000e-11,2.535000e-04,-1.086890e-05
5.250000e-11,2.550000e-04,-1.086589e-05
5.275000e-11,2.565000e-04,-1.086255e-05
5.300000e-11,2.580000e-04,-1.085884e-05
5.325000e-11,2.595000e-04,-1.085470e-05
5.350000e-11,2.610000e-04,-1.085005e-05
5.375000e-11,2.625000e-04,-1.084481e-05
5.400000e-11,2.640000e-04,-1.083887e-05
5.425000e-11,2.655000e-04,-1.083210e-05
5.450000e-11,2.670000e-04,-1.082436e-05
5.475000e-11,2.685000e-04,-1.081543e-05
5.500000e-11,2.700000e-04,-1.080507e-05
5.525000e-11,2.715000e-04,-1.079297e-05
5.550000e-11,2.730000e-04,-1.077871e-05
5.575000e-11,2.745000e-04,-1.076176e-05
5.600000e-11,2.760000e-04,-1.074142e-05
5.625000e-11,2.775000e-04,-1.071677e-05
5.650000e-11,2.790000e-04,-1.068655e-05
5.675000e-11,2.805000e-04,-1.064902e-05
5.700000e-11,2.820000e-04,-1.060178e-05
5.725000e-11,2.835000e-04,-1.054145e-05
5.750000e-11,2.850000e-04,-1.046317e-05
5.775000e-11,2.865000e-04,-1.036004e-05
5.800000e-11,2.880000e-04,-1.022220e-05
5.825000e-11,2.895000e-04,-1.003610e-05
5.850000e-11,2.910000e-04,-9.783896e-06
5.875000e-11,2.925000e-04,-9.443644e-06
5.900000e-11,2.940000e-04,-8.990059e-06
5.925000e-11,2.955000e-04,-8.395252e-06
5.950000e-11,2.970000e-04,-7.627959e-06
5.975000e-11,2.985000e-04,-6.649697e-06
6.000000e-11,3.000000e-04,-5.409302e-06
6.025000e-11,3.015000e-04,-3.844646e-06
6.050000e-11,3.030000e-04,-1.900320e-06
6.075000e-11,3.045000e-04,4.430488e-07
6.100000e-11,3.060000e-04,3.132175e-06
6.125000e-11,3.075000e-04,6.009210e-06
6.150000e-11,3.090000e-04,8.802683e-06
6.175000e-11,3.105000e-04,1.115264e-05
6.200000e-11,3.120000e-04,1.267081e-05
6.225000e-11,3.135000e-04,1.302464e-05
6.250000e-11,3.150000e-04,1.202476e-05
6.275000e-11,3.165000e-04,9.692365e-06
6.300000e-11,3.180000e-04,6.286717e-06
6.325000e-11,3.195000e-04,2.281177e-06
6.350000e-11,3.210000e-04,-1.712447e-06
6.375000e-11,3.225000e-04,-5.059384e-06
6.400000e-11,3.240000e-04,-7.233720e-06
6.425000e-11,3.255000e-04,-7.934907e-06
6.450000e-11,3.270000e-04,-7.156270e-06
6.475000e-11,3.285000e-04,-5.182199e-06
6.500000e-11,3.300000e-04,-2.509632e-06
6.525000e-11,3.315000e-04,2.877462e-07
6.550000e-11,3.330000e-04,2.716335e-06
6.575000e-11,3.345000e-04,4.498694e-06
6.600000e-11,3.360000e-04,5.655694e-06
6.625000e-11,3.375000e-04,6.520366e-06
6.650000e-11,3.390000e-04,7.690483e-06
6.675000e-11,3.405000e-04,9.943054e-06
6.700000e-11,3.420000e-04,1.413941e-05
6.725000e-11,3.435000e-04,2.114337e-05
6.750000e-11,3.450000e-04,3.177007e-05
6.775000e-11,3.465000e-04,4.680646e-05
6.800000e-11,3.480000e-04,6.718933e-05
6.825000e-11,3.495000e-04,9.443368e-05
6.850000e-11,3.510000e-04,1.313593e-04
6.875000e-11,3.525000e-04,1.829512e-04
6.900000e-11,3.540000e-04,2.565488e-04
6.925000e-11,3.555000e-04,3.608975e-04
6.950000e-11,3.570000e-04,5.087987e-04
6.975000e-11,3.585000e-04,7.238639e-04
7.000000e-11,3.600000e-04,1.023527e-03
7.025000e-11,3.615000e-04,1.316067e-03
7.050000e-11,3.630000e-04,1.373520e-03
7.075000e-11,3.645000e-04,1.130148e-03
7.100000e-11,3.660000e-04,6.894862e-04
7.125000e-11,3.675000e-04,1.998658e-04
7.150000e-11,3.690000e-04,-2.096539e-04
7.175000e-11,3.705000e-04,-4.421873e-04
7.200000e-11,3.720000e-04,-4.572506e-04
7.225000e-11,3.735000e-04,-2.929182e-04
7.250000e-11,3.750000e-04,-4.452467e-05
7.275000e-11,3.765000e-04,1.813593e-04
7.300000e-11,3.780000e-04,3.103892e-04
7.325000e-11,3.795000e-04,3.210340e-04
7.350000e-11,3.810000e-04,2.364128e-04
7.375000e-11,3.825000e-04,1.020061e-04
7.400000e-11,3.840000e-04,-3.409701e-05
7.425000e-11,3.855000e-04,-1.332868e-04
7.450000e-11,3.870000e-04,-1.738281e-04
7.475000e-11,3.885000e-04,-1.548771e-04
7.500000e-11,3.900000e-04,-9.439608e-05
7.525000e-11,3.915000e-04,-2.031440e-05
7.550000e-11,3.930000e-04,4.093516e-05
7.575000e-11,3.945000e-04,7.310890e-05
7.600000e-11,3.960000e-04,7.307960e-05
7.625000e-11,3.975000e-04,4.844962e-05
7.650000e-11,3.990000e-04,1.239617e-05
7.675000e-11,4.005000e-04,-2.167063e-05
7.700000e-11,4.020000e-04,-4.408715e-05
7.725000e-11,4.035000e-04,-5.092167e-05
7.750000e-11,4.050000e-04,-4.387759e-05
7.775000e-11,4.065000e-04,-2.850114e-05
7.800000e-11,4.080000e-04,-1.154936e-05
7.825000e-11,4.095000e-04,1.438504e-06
7.850000e-11,4.110000e-04,7.581579e-06
7.875000e-11,4.125000e-04,6.863470e-06
7.900000e-11,4.140000e-04,1.364453e-06
7.925000e-11,4.155000e-04,-5.957841e-06
7.950000e-11,4.170000e-04,-1.242276e-05
7.975000e-11,4.185000e-04,-1.637272e-05
8.000000e-11,4.200000e-04,-1.739224e-05
8.025000e-11,4.215000e-04,-1.607618e-05
8.050000e-11,4.230000e-04,-1.354527e-05
8.075000e-11,4.245000e-04,-1.093603e-05
8.100000e-11,4.260000e-04,-9.039338e-06
8.125000e-11,4.275000e-04,-8.163290e-06
8.150000e-11,4.290000e-04,-8.197757e-06
8.175000e-11,4.305000e-04,-8.795555e-06
8.200000e-11,4.320000e-04,-9.570879e-06
8.225000e-11,4.335000e-04,-1.024066e-05
8.250000e-11,4.350000e-04,-1.067834e-05
8.275000e-11,4.365000e-04,-1.089097e-05
8.300000e-11,4.380000e-04,-1.095541e-05
8.325000e-11,4.395000e-04,-1.095308e-05
8.350000e-11,4.410000e-04,-1.093047e-05
8.375000e-11,4.425000e-04,-1.089312e-05
8.400000e-11,4.440000e-04,-1.082436e-05
8.425000e-11,4.455000e-04,-1.071147e-05
8.450000e-11,4.470000e-04,-1.056385e-05
8.475000e-11,4.485000e-04,-1.041493e-05
8.500000e-11,4.500000e-04,-1.030940e-05
8.525000e-11,4.515000e-04,-1.028381e-05
8.550000e-11,4.530000e-04,-1.035060e-05
8.575000e-11,4.545000e-04,-1.049236e-05
8.600000e-11,4.560000e-04,-1.066815e-05
8.625000e-11,4.575000e-04,-1.082842e-05
8.650000e-11,4.590000e-04,-1.093186e-05
8.675000e-11,4.605000e-04,-1.095799e-05
8.700000e-11,4.620000e-04,-1.091134e-05
8.725000e-11,4.635000e-04,-1.081708e-05
8.750000e-11,4.650000e-04,-1.071054e-05
8.775000e-11,4.665000e-04,-1.062522e-05
8.800000e-11,4.680000e-04,-1.058328e-05
8.825000e-11,4.695000e-04,-1.059103e-05
8.850000e-11,4.710000e-04,-1.063994e-05
8.875000e-11,4.725000e-04,-1.071179e-05
8.900000e-11,4.740000e-04,-1.078550e-05
8.925000e-11,4.755000e-04,-1.084334e-05
8.950000e-11,4.770000e-04,-1.087496e-05
8.975000e-11,4.785000e-04,-1.087856e-05
9.000000e-11,4.800000e-04,-1.085961e-05
9.025000e-11,4.815000e-04,-1.082801e-05
9.050000e-11,4.830000e-04,-1.079488e-05
9.075000e-11,4.845000e-04,-1.076968e-05
9.100000e-11,4.860000e-04,-1.075837e-05
9.125000e-11,4.875000e-04,-1.076265e-05
9.150000e-11,4.890000e-04,-1.078027e-05
9.175000e-11,4.905000e-04,-1.080613e-05
9.200000e-11,4.920000e-04,-1.083378e-05
9.225000e-11,4.935000e-04,-1.085708e-05
9.250000e-11,4.950000e-04,-1.087160e-05
9.275000e-11,4.965000e-04,-1.087555e-05
9.300000e-11,4.980000e-04,-1.086993e-05
9.325000e-11,4.995000e-04,-1.085813e-05
9.350000e-11,5.010000e-04,-1.084475e-05
9.375000e-11,5.025000e-04,-1.083438e-05
9.400000e-11,5.040000e-04,-1.083029e-05
9.425000e-11,5.055000e-04,-1.083364e-05
9.450000e-11,5.070000e-04,-1.084338e-05
9.475000e-11,5.085000e-04,-1.085671e-05
9.500000e-11,5.100000e-04,-1.087007e-05
9.525000e-11,5.115000e-04,-1.088025e-05
9.550000e-11,5.130000e-04,-1.088531e-05
9.575000e-11,5.145000e-04,-1.088499e-05
9.600000e-11,5.160000e-04,-1.088064e-05
9.625000e-11,5.175000e-04,-1.087462e-05
9.650000e-11,5.190000e-04,-1.086944e-05
9.675000e-11,5.205000e-04,-1.086704e-05
9.700000e-11,5.220000e-04,-1.086821e-05
9.725000e-11,5.235000e-04,-1.087256e-05
9.750000e-11,5.250000e-04,-1.087875e-05
9.775000e-11,5.265000e-04,-1.088506e-05
9.800000e-11,5.280000e-04,-1.088997e-05
9.825000e-11,5.295000e-04,-1.089260e-05
9.850000e-11,5.310000e-04,-1.089287e-05
9.875000e-11,5.325000e-04,-1.089144e-05
9.900000e-11,5.340000e-04,-1.088936e-05
9.925000e-11,5.355000e-04,-1.088769e-05
9.950000e-11,5.370000e-04,-1.088719e-05
9.975000e-11,5.385000e-04,-1.088809e-05
1.000000e-10,5.400000e-04,-1.089015e-05
1.002500e-10,5.415000e-04,-1.089281e-05
1.005000e-10,5.430000e-04,-1.089540e-05
1.007500e-10,5.445000e-04,-1.089737e-05
1.010000e-10,5.460000e-04,-1.089848e-05
1.012500e-10,5.475000e-04,-1.089876e-05
1.015000e-10,5.490000e-04,-1.089851e-05
1.017500e-10,5.505000e-04,-1.089810e-05
1.020000e-10,5.520000e-04,-1.089789e-05
1.022500e-10,5.535000e-04,-1.089809e-05
1.025000e-10,5.550000e-04,-1.089873e-05
1.027500e-10,5.565000e-04,-1.089969e-05
1.030000e-10,5.580000e-04,-1.090076e-05
1.032500e-10,5.595000e-04,-1.090174e-05
1.035000e-10,5.610000e-04,-1.090250e-05
1.037500e-10,5.625000e-04,-1.090299e-05
1.040000e-10,5.640000e-04,-1.090324e-05
1.042500e-10,5.655000e-04,-1.090337e-05
1.045000e-10,5.670000e-04,-1.090347e-05
1.047500e-10,5.685000e-04,-1.090365e-05
1.050000e-10,5.700000e-04,-1.090393e-05
1.052500e-10,5.715000e-04,-1.090431e-05
1.055000e-10,5.730000e-04,-1.090474e-05
1.057500e-10,5.745000e-04,-1.090517e-05
1.060000e-10,5.760000e-04,-1.090556e-05
1.062500e-10,5.775000e-04,-1.090588e-05
1.065000e-10,5.790000e-04,-1.090613e-05
1.067500e-10,5.805000e-04,-1.090633e-05
1.070000e-10,5.820000e-04,-1.090650e-05
1.072500e-10,5.835000e-04,-1.090667e-05
1.075000e-10,5.850000e-04,-1.090685e-05
1.077500e-10,5.865000e-04,-1.090704e-05
1.080000e-10,5.880000e-04,-1.090724e-05
1.082500e-10,5.895000e-04,-1.090744e-05
1.085000e-10,5.910000e-04,-1.090763e-05
1.087500e-10,5.925000e-04,-1.090780e-05
1.090000e-10,5.940000e-04,-1.090796e-05
1.092500e-10,5.955000e-04,-1.090809e-05
1.095000e-10,5.970000e-04,-1.090822e-05
1.097500e-10,5.985000e-04,-1.090834e-05
1.100000e-10,6.000000e-04,-1.090846e-05
1.102500e-10,6.000000e-04,-1.090859e-05
1.105000e-10,6.000000e-04,-1.090876e-05
1.107500e-10,6.000000e-04,-1.090905e-05
1.110000e-10,6.000000e-04,-1.090960e-05
1.112500e-10,5.985000e-04,-1.091062e-05
1.115000e-10,5.970000e-04,-1.091239e-05
1.117500e-10,5.955000e-04,-1.091519e-05
1.120000e-10,5.940000e-04,-1.091929e-05
1.122500e-10,5.925000e-04,-1.092482e-05
1.125000e-10,5.910000e-04,-1.093170e-05
1.127500e-10,5.895000e-04,-1.093954e-05
1.130000e-10,5.880000e-04,-1.094768e-05
1.132500e-10,5.865000e-04,-1.095524e-05
1.135000e-10,5.850000e-04,-1.096124e-05
1.137500e-10,5.835000e-04,-1.096487e-05
1.140000e-10,5.820000e-04,-1.096563e-05
1.142500e-10,5.805000e-04,-1.096355e-05
1.145000e-10,5.790000e-04,-1.095922e-05
1.147500e-10,5.775000e-04,-1.095370e-05
1.150000e-10,5.760000e-04,-1.094830e-05
1.152500e-10,5.745000e-04,-1.094428e-05
1.155000e-10,5.730000e-04,-1.094251e-05
1.157500e-10,5.715000e-04,-1.094326e-05
1.160000e-10,5.700000e-04,-1.094608e-05
1.162500e-10,5.685000e-04,-1.094996e-05
1.165000e-10,5.670000e-04,-1.095358e-05
1.167500e-10,5.655000e-04,-1.095567e-05
1.170000e-10,5.640000e-04,-1.095540e-05
1.172500e-10,5.625000e-04,-1.095261e-05
1.175000e-10,5.610000e-04,-1.094783e-05
1.177500e-10,5.595000e-04,-1.094214e-05
1.180000e-10,5.580000e-04,-1.093686e-05
1.182500e-10,5.565000e-04,-1.093311e-05
1.185000e-10,5.550000e-04,-1.093155e-05
1.187500e-10,5.535000e-04,-1.093218e-05
1.190000e-10,5.520000e-04,-1.093435e-05
1.192500e-10,5.505000e-04,-1.093703e-05
1.195000e-10,5.490000e-04,-1.093910e-05
1.197500e-10,5.475000e-04,-1.093970e-05
1.200000e-10,5.460000e-04,-1.093849e-05
1.202500e-10,5.445000e-04,-1.093569e-05
1.205000e-10,5.430000e-04,-1.093201e-05
1.207500e-10,5.415000e-04,-1.092834e-05
1.210000e-10,5.400000e-04,-1.092555e-05
1.212500e-10,5.385000e-04,-1.092413e-05
1.215000e-10,5.370000e-04,-1.092417e-05
1.217500e-10,5.355000e-04,-1.092527e-05
1.220000e-10,5.340000e-04,-1.092679e-05
1.222500e-10,5.325000e-04,-1.092802e-05
1.225000e-10,5.310000e-04,-1.092842e-05
1.227500e-10,5.295000e-04,-1.092778e-05
1.230000e-10,5.280000e-04,-1.092623e-05
1.232500e-10,5.265000e-04,-1.092418e-05
1.235000e-10,5.250000e-04,-1.092215e-05
1.237500e-10,5.235000e-04,-1.092061e-05
1.240000e-10,5.220000e-04,-1.091981e-05
1.242500e-10,5.205000e-04,-1.091978e-05
1.245000e-10,5.190000e-04,-1.092027e-05
1.247500e-10,5.175000e-04,-1.092094e-05
1.250000e-10,5.160000e-04,-1.092144e-05
