time,"V(2)","V(8)"
0.000000e+00,0.000000e+00,0.000000e+00
2.500000e-13,8.583664e-06,1.381776e-05
5.000000e-13,6.817429e-06,1.731948e-05
7.500000e-13,1.594228e-05,3.955108e-05
1.000000e-12,2.534606e-05,6.122881e-05
1.250000e-12,3.307610e-05,7.783873e-05
1.500000e-12,3.789141e-05,8.716369e-05
1.750000e-12,3.953838e-05,8.947220e-05
2.000000e-12,3.865760e-05,8.684380e-05
2.250000e-12,3.643041e-05,8.210490e-05
2.500000e-12,3.412816e-05,7.781994e-05
2.750000e-12,3.272324e-05,7.563259e-05
3.000000e-12,3.266887e-05,7.605843e-05
3.250000e-12,3.388141e-05,7.866594e-05
3.500000e-12,3.588998e-05,8.248534e-05
3.750000e-12,3.807302e-05,8.646217e-05
4.000000e-12,3.989062e-05,8.980980e-05
4.250000e-12,4.104053e-05,9.218456e-05
4.500000e-12,4.150538e-05,9.368045e-05
4.750000e-12,4.149977e-05,9.469478e-05
5.000000e-12,4.135600e-05,9.574019e-05
5.250000e-12,3.281477e-05,8.345638e-05
5.500000e-12,2.621788e-05,6.757605e-05
5.750000e-12,1.731900e-05,4.596592e-05
6.000000e-12,7.869338e-06,2.340941e-05
6.250000e-12,-3.940560e-07,4.181145e-06
6.500000e-12,-6.261555e-06,-9.137452e-06
6.750000e-12,-9.292629e-06,-1.595406e-05
7.000000e-12,-9.790367e-06,-1.730912e-05
7.250000e-12,-8.577486e-06,-1.517712e-05
7.500000e-12,-6.676880e-06,-1.171558e-05
7.750000e-12,-5.003629e-06,-8.675333e-06
8.000000e-12,-4.150613e-06,-7.080963e-06
8.250000e-12,-4.307162e-06,-7.189077e-06
8.500000e-12,-5.304991e-06,-8.656965e-06
8.750000e-12,-6.751634e-06,-1.081884e-05
9.000000e-12,-8.195879e-06,-1.296796e-05
9.250000e-12,-9.272702e-06,-1.456967e-05
9.500000e-12,-9.791735e-06,-1.536859e-05
9.750000e-12,-9.756345e-06,-1.538983e-05
1.000000e-11,-9.322492e-06,-1.486196e-05
1.025000e-11,-8.714992e-06,-1.409571e-05
1.050000e-11,-8.156576e-06,-1.338516e-05
1.075000e-11,-7.794540e-06,-1.292023e-05
1.100000e-11,-7.680377e-06,-1.276527e-05
1.125000e-11,-7.776802e-06,-1.287338e-05
1.150000e-11,-7.991593e-06,-1.313124e-05
1.175000e-11,-8.220306e-06,-1.341190e-05
1.200000e-11,-8.382351e-06,-1.361769e-05
1.225000e-11,-8.440508e-06,-1.370259e-05
1.250000e-11,-8.401517e-06,-1.367231e-05
1.275000e-11,-8.302153e-06,-1.356788e-05
1.300000e-11,-8.188960e-06,-1.344235e-05
1.325000e-11,-8.100075e-06,-1.333998e-05
1.350000e-11,-8.054760e-06,-1.328426e-05
1.375000e-11,-8.052282e-06,-1.327628e-05
1.400000e-11,-8.078038e-06,-1.330123e-05
1.425000e-11,-8.112797e-06,-1.333843e-05
1.450000e-11,-8.140886e-06,-1.337039e-05
1.475000e-11,-8.154611e-06,-1.338783e-05
1.500000e-11,-8.154352e-06,-1.339017e-05
1.525000e-11,-8.145563e-06,-1.338255e-05
1.550000e-11,-8.134766e-06,-1.337169e-05
1.575000e-11,-8.126457e-06,-1.336255e-05
1.600000e-11,-8.121917e-06,-1.335691e-05
1.625000e-11,-8.119875e-06,-1.335392e-05
1.650000e-11,-8.118161e-06,-1.335160e-05
1.675000e-11,-8.115302e-06,-1.334854e-05
1.700000e-11,-8.111290e-06,-1.334463e-05
1.725000e-11,-8.107353e-06,-1.334097e-05
1.750000e-11,-8.105037e-06,-1.333896e-05
1.775000e-11,-8.105223e-06,-1.333939e-05
1.800000e-11,-8.107584e-06,-1.334188e-05
1.825000e-11,-8.110722e-06,-1.334505e-05
1.850000e-11,-8.112828e-06,-1.334711e-05
1.875000e-11,-8.112517e-06,-1.334672e-05
1.900000e-11,-8.109420e-06,-1.334354e-05
1.925000e-11,-8.104285e-06,-1.333834e-05
1.950000e-11,-8.098599e-06,-1.333263e-05
1.975000e-11,-8.093925e-06,-1.332795e-05
2.000000e-11,-8.091281e-06,-1.332533e-05
2.025000e-11,-8.090799e-06,-1.332487e-05
2.050000e-11,-8.091781e-06,-1.332587e-05
2.075000e-11,-8.093070e-06,-1.332718e-05
2.100000e-11,-8.093558e-06,-1.332767e-05
2.125000e-11,-8.092590e-06,-1.332670e-05
2.150000e-11,-8.090149e-06,-1.332425e-05
2.175000e-11,-8.086757e-06,-1.332085e-05
2.200000e-11,-8.083188e-06,-1.331728e-05
2.225000e-11,-8.080140e-06,-1.331423e-05
2.250000e-11,-8.077980e-06,-1.331207e-05
2.275000e-11,-8.076675e-06,-1.331076e-05
2.300000e-11,-8.075872e-06,-1.330996e-05
2.325000e-11,-8.075099e-06,-1.330919e-05
2.350000e-11,-8.073957e-06,-1.330805e-05
2.375000e-11,-8.072263e-06,-1.330636e-05
2.400000e-11,-8.070069e-06,-1.330416e-05
2.425000e-11,-8.067593e-06,-1.330169e-05
2.450000e-11,-8.065104e-06,-1.329920e-05
2.475000e-11,-8.062805e-06,-1.329690e-05
2.500000e-11,-8.060773e-06,-1.329487e-05
2.525000e-11,-8.058957e-06,-1.329305e-05
2.550000e-11,-8.057226e-06,-1.329132e-05
2.575000e-11,-8.055438e-06,-1.328953e-05
2.600000e-11,-8.053500e-06,-1.328759e-05
2.625000e-11,-8.051389e-06,-1.328548e-05
2.650000e-11,-8.049144e-06,-1.328324e-05
2.675000e-11,-8.046840e-06,-1.328093e-05
2.700000e-11,-8.044541e-06,-1.327863e-05
2.725000e-11,-8.042285e-06,-1.327638e-05
2.750000e-11,-8.040069e-06,-1.327416e-05
2.775000e-11,-8.037862e-06,-1.327195e-05
2.800000e-11,-8.035626e-06,-1.326972e-05
2.825000e-11,-8.033332e-06,-1.326742e-05
2.850000e-11,-8.030969e-06,-1.326506e-05
2.875000e-11,-8.028547e-06,-1.326264e-05
2.900000e-11,-8.026085e-06,-1.326018e-05
2.925000e-11,-8.023599e-06,-1.325769e-05
2.950000e-11,-8.021099e-06,-1.325519e-05
2.975000e-11,-8.018581e-06,-1.325267e-05
3.000000e-11,-8.016035e-06,-1.325013e-05
3.025000e-11,-8.013449e-06,-1.324754e-05
3.050000e-11,-8.010814e-06,-1.324491e-05
3.075000e-11,-8.008129e-06,-1.324222e-05
3.100000e-11,-8.005397e-06,-1.323949e-05
3.125000e-11,-8.002626e-06,-1.323672e-05
3.150000e-11,-7.999820e-06,-1.323391e-05
3.175000e-11,-7.996981e-06,-1.323107e-05
3.200000e-11,-7.994105e-06,-1.322820e-05
3.225000e-11,-7.991187e-06,-1.322528e-05
3.250000e-11,-7.988220e-06,-1.322231e-05
3.275000e-11,-7.985201e-06,-1.321929e-05
3.300000e-11,-7.982128e-06,-1.321622e-05
3.325000e-11,-7.979002e-06,-1.321309e-05
3.350000e-11,-7.975827e-06,-1.320992e-05
3.375000e-11,-7.972603e-06,-1.320670e-05
3.400000e-11,-7.969331e-06,-1.320342e-05
3.425000e-11,-7.966008e-06,-1.320010e-05
3.450000e-11,-7.962630e-06,-1.319672e-05
3.475000e-11,-7.959194e-06,-1.319329e-05
3.500000e-11,-7.955696e-06,-1.318979e-05
3.525000e-11,-7.952134e-06,-1.318623e-05
3.550000e-11,-7.948508e-06,-1.318260e-05
3.575000e-11,-7.944817e-06,-1.317891e-05
3.600000e-11,-7.941062e-06,-1.317515e-05
3.625000e-11,-7.937240e-06,-1.317133e-05
3.650000e-11,-7.933351e-06,-1.316744e-05
3.675000e-11,-7.929390e-06,-1.316348e-05
3.700000e-11,-7.925355e-06,-1.315945e-05
3.725000e-11,-7.921242e-06,-1.315533e-05
3.750000e-11,-7.917049e-06,-1.315114e-05
3.775000e-11,-7.912774e-06,-1.314687e-05
3.800000e-11,-7.908415e-06,-1.314251e-05
3.825000e-11,-7.903969e-06,-1.313806e-05
3.850000e-11,-7.899435e-06,-1.313353e-05
3.875000e-11,-7.894810e-06,-1.312890e-05
3.900000e-11,-7.890089e-06,-1.312418e-05
3.925000e-11,-7.885271e-06,-1.311936e-05
3.950000e-11,-7.880350e-06,-1.311444e-05
3.975000e-11,-7.875324e-06,-1.310942e-05
4.000000e-11,-7.870188e-06,-1.310428e-05
4.025000e-11,-7.864939e-06,-1.309903e-05
4.050000e-11,-7.859574e-06,-1.309367e-05
4.075000e-11,-7.854088e-06,-1.308818e-05
4.100000e-11,-7.848478e-06,-1.308257e-05
4.125000e-11,-7.842737e-06,-1.307683e-05
4.150000e-11,-7.836862e-06,-1.307095e-05
4.175000e-11,-7.830847e-06,-1.306494e-05
4.200000e-11,-7.824687e-06,-1.305878e-05
4.225000e-11,-7.818376e-06,-1.305247e-05
4.250000e-11,-7.811908e-06,-1.304600e-05
4.275000e-11,-7.805277e-06,-1.303937e-05
4.300000e-11,-7.798476e-06,-1.303257e-05
4.325000e-11,-7.791499e-06,-1.302559e-05
4.350000e-11,-7.784338e-06,-1.301843e-05
4.375000e-11,-7.776985e-06,-1.301108e-05
4.400000e-11,-7.769432e-06,-1.300352e-05
4.425000e-11,-7.761670e-06,-1.299576e-05
4.450000e-11,-7.753691e-06,-1.298778e-05
4.475000e-11,-7.745483e-06,-1.297958e-05
4.500000e-11,-7.737037e-06,-1.297113e-05
4.525000e-11,-7.728342e-06,-1.296243e-05
4.550000e-11,-7.719385e-06,-1.295348e-05
4.575000e-11,-7.710155e-06,-1.294425e-05
4.600000e-11,-7.700638e-06,-1.293473e-05
4.625000e-11,-7.690820e-06,-1.292491e-05
4.650000e-11,-7.680685e-06,-1.291478e-05
4.675000e-11,-7.670217e-06,-1.290431e-05
4.700000e-11,-7.659398e-06,-1.289349e-05
4.725000e-11,-7.648211e-06,-1.288230e-05
4.750000e-11,-7.636634e-06,-1.287073e-05
4.775000e-11,-7.624647e-06,-1.285874e-05
4.800000e-11,-7.612226e-06,-1.284632e-05
4.825000e-11,-7.599346e-06,-1.283344e-05
4.850000e-11,-7.585981e-06,-1.282007e-05
4.875000e-11,-7.572100e-06,-1.280619e-05
4.900000e-11,-7.557673e-06,-1.279177e-05
4.925000e-11,-7.542666e-06,-1.277676e-05
4.950000e-11,-7.527041e-06,-1.276113e-05
4.975000e-11,-7.510759e-06,-1.274485e-05
5.000000e-11,-7.493776e-06,-1.272787e-05
5.025000e-11,-7.476043e-06,-1.271014e-05
5.050000e-11,-7.457510e-06,-1.269160e-05
5.075000e-11,-7.438119e-06,-1.267221e-05
5.100000e-11,-7.417806e-06,-1.265190e-05
5.125000e-11,-7.396505e-06,-1.263060e-05
5.150000e-11,-7.374139e-06,-1.260823e-05
5.175000e-11,-7.350624e-06,-1.258472e-05
5.200000e-11,-7.325869e-06,-1.255996e-05
5.225000e-11,-7.299770e-06,-1.253386e-05
5.250000e-11,-7.272215e-06,-1.250631e-05
5.275000e-11,-7.243077e-06,-1.247717e-05
5.300000e-11,-7.212214e-06,-1.244631e-05
5.325000e-11,-7.179467e-06,-1.241356e-05
5.350000e-11,-7.144659e-06,-1.237875e-05
5.375000e-11,-7.107588e-06,-1.234168e-05
5.400000e-11,-7.068028e-06,-1.230212e-05
5.425000e-11,-7.025720e-06,-1.225981e-05
5.450000e-11,-6.980372e-06,-1.221446e-05
5.475000e-11,-6.931648e-06,-1.216574e-05
5.500000e-11,-6.879164e-06,-1.211326e-05
5.525000e-11,-6.822476e-06,-1.205657e-05
5.550000e-11,-6.761072e-06,-1.199516e-05
5.575000e-11,-6.694356e-06,-1.192845e-05
5.600000e-11,-6.621631e-06,-1.185572e-05
5.625000e-11,-6.542081e-06,-1.177617e-05
5.650000e-11,-6.454741e-06,-1.168883e-05
5.675000e-11,-6.358466e-06,-1.159256e-05
5.700000e-11,-6.251887e-06,-1.148598e-05
5.725000e-11,-6.133362e-06,-1.136745e-05
5.750000e-11,-6.000899e-06,-1.123499e-05
5.775000e-11,-5.852073e-06,-1.108617e-05
5.800000e-11,-5.683902e-06,-1.091799e-05
5.825000e-11,-5.492691e-06,-1.072678e-05
5.850000e-11,-5.273821e-06,-1.050791e-05
5.875000e-11,-5.021462e-06,-1.025555e-05
5.900000e-11,-4.728181e-06,-9.962273e-06
5.925000e-11,-4.384393e-06,-9.618486e-06
5.950000e-11,-3.977603e-06,-9.211695e-06
5.975000e-11,-3.491310e-06,-8.725402e-06
6.000000e-11,-2.903443e-06,-8.137535e-06
6.025000e-11,-2.184076e-06,-7.418169e-06
6.050000e-11,-1.292075e-06,-6.526167e-06
6.075000e-11,-1.701363e-07,-5.404229e-06
6.100000e-11,1.262482e-06,-3.971611e-06
6.125000e-11,3.120378e-06,-2.113714e-06
6.150000e-11,5.565895e-06,3.318021e-07
6.175000e-11,8.824309e-06,3.590216e-06
6.200000e-11,1.319036e-05,7.956262e-06
6.225000e-11,1.899935e-05,1.376526e-05
6.250000e-11,2.652196e-05,2.128787e-05
6.275000e-11,3.578324e-05,3.054914e-05
6.300000e-11,4.641541e-05,4.118132e-05
6.325000e-11,5.765301e-05,5.241892e-05
6.350000e-11,6.847205e-05,6.323796e-05
6.375000e-11,7.784815e-05,7.261406e-05
6.400000e-11,8.507533e-05,7.984124e-05
6.425000e-11,9.005301e-05,8.481892e-05
6.450000e-11,9.346414e-05,8.823005e-05
6.475000e-11,9.681554e-05,9.158145e-05
6.500000e-11,1.023710e-04,9.713690e-05
6.525000e-11,1.130584e-04,1.078243e-04
6.550000e-11,1.324541e-04,1.272200e-04
6.575000e-11,1.649212e-04,1.596871e-04
6.600000e-11,2.158889e-04,2.106548e-04
6.625000e-11,2.922133e-04,2.869792e-04
6.650000e-11,4.031152e-04,3.978811e-04
6.675000e-11,5.628647e-04,5.576306e-04
6.700000e-11,7.883736e-04,7.831395e-04
6.725000e-11,1.055059e-03,1.049825e-03
6.750000e-11,1.213078e-03,1.207844e-03
6.775000e-11,1.121527e-03,1.116293e-03
6.800000e-11,8.057860e-04,8.005519e-04
6.825000e-11,3.857404e-04,3.805063e-04
6.850000e-11,-5.171679e-06,-1.040577e-05
6.875000e-11,-2.616842e-04,-2.669182e-04
6.900000e-11,-3.355653e-04,-3.407994e-04
6.925000e-11,-2.496780e-04,-2.549121e-04
6.950000e-11,-7.833981e-05,-8.357390e-05
6.975000e-11,9.133249e-05,8.609840e-05
7.000000e-11,1.953842e-04,1.901501e-04
7.025000e-11,2.113080e-04,2.060739e-04
7.050000e-11,1.544651e-04,1.492310e-04
7.075000e-11,6.149401e-05,5.625992e-05
7.100000e-11,-2.794230e-05,-3.317640e-05
7.125000e-11,-8.505658e-05,-9.029067e-05
7.150000e-11,-9.919615e-05,-1.044302e-04
7.175000e-11,-7.740018e-05,-8.263427e-05
7.200000e-11,-3.751984e-05,-4.275393e-05
7.225000e-11,1.145040e-06,-4.089053e-06
7.250000e-11,2.533174e-05,2.009764e-05
7.275000e-11,3.092559e-05,2.569149e-05
7.300000e-11,2.172488e-05,1.649078e-05
7.325000e-11,5.633417e-06,3.993246e-07
7.350000e-11,-9.511254e-06,-1.474535e-05
7.375000e-11,-1.880762e-05,-2.404171e-05
7.400000e-11,-2.115793e-05,-2.639202e-05
7.425000e-11,-1.839454e-05,-2.362863e-05
7.450000e-11,-1.354356e-05,-1.877766e-05
7.475000e-11,-9.200807e-06,-1.443490e-05
7.500000e-11,-6.653779e-06,-1.188787e-05
7.525000e-11,-5.873552e-06,-1.110764e-05
7.550000e-11,-6.088925e-06,-1.132302e-05
7.575000e-11,-6.488441e-06,-1.172253e-05
7.600000e-11,-6.676127e-06,-1.191022e-05
7.625000e-11,-6.734260e-06,-1.196835e-05
7.650000e-11,-6.981698e-06,-1.221579e-05
7.675000e-11,-7.646967e-06,-1.288106e-05
7.700000e-11,-8.664106e-06,-1.389820e-05
7.725000e-11,-9.686387e-06,-1.492048e-05
7.750000e-11,-1.027776e-05,-1.551186e-05
7.775000e-11,-1.015415e-05,-1.538824e-05
7.800000e-11,-9.338527e-06,-1.457262e-05
7.825000e-11,-8.154902e-06,-1.338900e-05
7.850000e-11,-7.075854e-06,-1.230995e-05
7.875000e-11,-6.508926e-06,-1.174302e-05
7.900000e-11,-6.627052e-06,-1.186114e-05
7.925000e-11,-7.315649e-06,-1.254974e-05
7.950000e-11,-8.247510e-06,-1.348160e-05
7.975000e-11,-9.038660e-06,-1.427275e-05
8.000000e-11,-9.409225e-06,-1.464332e-05
8.025000e-11,-9.281148e-06,-1.451524e-05
8.050000e-11,-8.780611e-06,-1.401470e-05
8.075000e-11,-8.157677e-06,-1.339177e-05
8.100000e-11,-7.668460e-06,-1.290255e-05
8.125000e-11,-7.473724e-06,-1.270782e-05
8.150000e-11,-7.592351e-06,-1.282644e-05
8.175000e-11,-7.919158e-06,-1.315325e-05
8.200000e-11,-8.288713e-06,-1.352281e-05
8.225000e-11,-8.551314e-06,-1.378541e-05
8.250000e-11,-8.628506e-06,-1.386260e-05
8.275000e-11,-8.529719e-06,-1.376381e-05
8.300000e-11,-8.330776e-06,-1.356487e-05
8.325000e-11,-8.130345e-06,-1.336444e-05
8.350000e-11,-8.006186e-06,-1.324028e-05
8.375000e-11,-7.988854e-06,-1.322295e-05
8.400000e-11,-8.059844e-06,-1.329394e-05
8.425000e-11,-8.169834e-06,-1.340393e-05
8.450000e-11,-8.265381e-06,-1.349947e-05
8.475000e-11,-8.311408e-06,-1.354550e-05
8.500000e-11,-8.301224e-06,-1.353532e-05
8.525000e-11,-8.252688e-06,-1.348678e-05
8.550000e-11,-8.195132e-06,-1.342922e-05
8.575000e-11,-8.154509e-06,-1.338860e-05
8.600000e-11,-8.143337e-06,-1.337743e-05
8.625000e-11,-8.158587e-06,-1.339268e-05
8.650000e-11,-8.186622e-06,-1.342071e-05
8.675000e-11,-8.211536e-06,-1.344563e-05
8.700000e-11,-8.222576e-06,-1.345667e-05
8.725000e-11,-8.217662e-06,-1.345175e-05
8.750000e-11,-8.202351e-06,-1.343644e-05
8.775000e-11,-8.185668e-06,-1.341976e-05
8.800000e-11,-8.175314e-06,-1.340941e-05
8.825000e-11,-8.174471e-06,-1.340856e-05
8.850000e-11,-8.181291e-06,-1.341538e-05
8.875000e-11,-8.190736e-06,-1.342483e-05
8.900000e-11,-8.197487e-06,-1.343158e-05
8.925000e-11,-8.198419e-06,-1.343251e-05
8.950000e-11,-8.193617e-06,-1.342771e-05
8.975000e-11,-8.185770e-06,-1.341986e-05
9.000000e-11,-8.178505e-06,-1.341260e-05
9.025000e-11,-8.174601e-06,-1.340869e-05
9.050000e-11,-8.174891e-06,-1.340898e-05
9.075000e-11,-8.178215e-06,-1.341231e-05
9.100000e-11,-8.182261e-06,-1.341635e-05
9.125000e-11,-8.184766e-06,-1.341886e-05
9.150000e-11,-8.184490e-06,-1.341858e-05
9.175000e-11,-8.181586e-06,-1.341568e-05
9.200000e-11,-8.177302e-06,-1.341139e-05
9.225000e-11,-8.173268e-06,-1.340736e-05
9.250000e-11,-8.170734e-06,-1.340483e-05
9.275000e-11,-8.170107e-06,-1.340420e-05
9.300000e-11,-8.170924e-06,-1.340502e-05
9.325000e-11,-8.172197e-06,-1.340629e-05
9.350000e-11,-8.172916e-06,-1.340701e-05
9.375000e-11,-8.172478e-06,-1.340657e-05
9.400000e-11,-8.170865e-06,-1.340496e-05
9.425000e-11,-8.168545e-06,-1.340264e-05
9.450000e-11,-8.166191e-06,-1.340028e-05
9.475000e-11,-8.164360e-06,-1.339845e-05
9.500000e-11,-8.163290e-06,-1.339738e-05
9.525000e-11,-8.162855e-06,-1.339695e-05
9.550000e-11,-8.162690e-06,-1.339678e-05
9.575000e-11,-8.162384e-06,-1.339648e-05
9.600000e-11,-8.161663e-06,-1.339576e-05
9.625000e-11,-8.160473e-06,-1.339457e-05
9.650000e-11,-8.158962e-06,-1.339305e-05
9.675000e-11,-8.157378e-06,-1.339147e-05
9.700000e-11,-8.155949e-06,-1.339004e-05
9.725000e-11,-8.154788e-06,-1.338888e-05
9.750000e-11,-8.153872e-06,-1.338796e-05
9.775000e-11,-8.153077e-06,-1.338717e-05
9.800000e-11,-8.152249e-06,-1.338634e-05
9.825000e-11,-8.151277e-06,-1.338537e-05
9.850000e-11,-8.150129e-06,-1.338422e-05
9.875000e-11,-8.148848e-06,-1.338294e-05
9.900000e-11,-8.147522e-06,-1.338162e-05
9.925000e-11,-8.146237e-06,-1.338033e-05
9.950000e-11,-8.145040e-06,-1.337913e-05
9.975000e-11,-8.143928e-06,-1.337802e-05
1.000000e-10,-8.142858e-06,-1.337695e-05
1.002500e-10,-8.141775e-06,-1.337587e-05
1.005000e-10,-8.140635e-06,-1.337473e-05
1.007500e-10,-8.139425e-06,-1.337352e-05
1.010000e-10,-8.138158e-06,-1.337225e-05
1.012500e-10,-8.136865e-06,-1.337096e-05
1.015000e-10,-8.135579e-06,-1.336967e-05
1.017500e-10,-8.134318e-06,-1.336841e-05
1.020000e-10,-8.133082e-06,-1.336717e-05
1.022500e-10,-8.131855e-06,-1.336595e-05
1.025000e-10,-8.130617e-06,-1.336471e-05
1.027500e-10,-8.129352e-06,-1.336344e-05
1.030000e-10,-8.128051e-06,-1.336214e-05
1.032500e-10,-8.126721e-06,-1.336081e-05
1.035000e-10,-8.125373e-06,-1.335947e-05
1.037500e-10,-8.124019e-06,-1.335811e-05
1.040000e-10,-8.122667e-06,-1.335676e-05
1.042500e-10,-8.121316e-06,-1.335541e-05
1.045000e-10,-8.119962e-06,-1.335405e-05
1.047500e-10,-8.118595e-06,-1.335269e-05
1.050000e-10,-8.117209e-06,-1.335130e-05
1.052500e-10,-8.115801e-06,-1.334989e-05
1.055000e-10,-8.114373e-06,-1.334847e-05
1.057500e-10,-8.112928e-06,-1.334702e-05
1.060000e-10,-8.111471e-06,-1.334556e-05
1.062500e-10,-8.110006e-06,-1.334410e-05
1.065000e-10,-8.108532e-06,-1.334262e-05
1.067500e-10,-8.107048e-06,-1.334114e-05
1.070000e-10,-8.105549e-06,-1.333964e-05
1.072500e-10,-8.104033e-06,-1.333813e-05
1.075000e-10,-8.102499e-06,-1.333659e-05
1.077500e-10,-8.100946e-06,-1.333504e-05
1.080000e-10,-8.099376e-06,-1.333347e-05
1.082500e-10,-8.097791e-06,-1.333188e-05
1.085000e-10,-8.096191e-06,-1.333028e-05
1.087500e-10,-8.094578e-06,-1.332867e-05
1.090000e-10,-8.092948e-06,-1.332704e-05
1.092500e-10,-8.091303e-06,-1.332540e-05
1.095000e-10,-8.089639e-06,-1.332373e-05
1.097500e-10,-8.087956e-06,-1.332205e-05
1.100000e-10,-8.086253e-06,-1.332035e-05
1.102500e-10,-8.091401e-06,-1.332549e-05
1.105000e-10,-8.105524e-06,-1.333962e-05
1.107500e-10,-8.136302e-06,-1.337039e-05
1.110000e-10,-8.188354e-06,-1.342245e-05
1.112500e-10,-8.269297e-06,-1.350339e-05
1.115000e-10,-8.376218e-06,-1.361031e-05
1.117500e-10,-8.505780e-06,-1.373987e-05
1.120000e-10,-8.647676e-06,-1.388177e-05
1.122500e-10,-8.787804e-06,-1.402190e-05
1.125000e-10,-8.910970e-06,-1.414506e-05
1.127500e-10,-9.004262e-06,-1.423835e-05
1.130000e-10,-9.060196e-06,-1.429429e-05
1.132500e-10,-9.078672e-06,-1.431276e-05
1.135000e-10,-9.067048e-06,-1.430114e-05
1.137500e-10,-9.038194e-06,-1.427229e-05
1.140000e-10,-9.007020e-06,-1.424111e-05
1.142500e-10,-8.986489e-06,-1.422058e-05
1.145000e-10,-8.984321e-06,-1.421841e-05
1.147500e-10,-9.001364e-06,-1.423546e-05
1.150000e-10,-9.032101e-06,-1.426619e-05
1.152500e-10,-9.067022e-06,-1.430111e-05
1.155000e-10,-9.096021e-06,-1.433011e-05
1.157500e-10,-9.111668e-06,-1.434576e-05
1.160000e-10,-9.111313e-06,-1.434541e-05
1.162500e-10,-9.097437e-06,-1.433153e-05
1.165000e-10,-9.076298e-06,-1.431039e-05
1.167500e-10,-9.055496e-06,-1.428959e-05
1.170000e-10,-9.041364e-06,-1.427546e-05
1.172500e-10,-9.037104e-06,-1.427120e-05
1.175000e-10,-9.042192e-06,-1.427629e-05
1.177500e-10,-9.053098e-06,-1.428719e-05
1.180000e-10,-9.064910e-06,-1.429900e-05
1.182500e-10,-9.073192e-06,-1.430728e-05
1.185000e-10,-9.075396e-06,-1.430949e-05
1.187500e-10,-9.071415e-06,-1.430551e-05
1.190000e-10,-9.063220e-06,-1.429731e-05
1.192500e-10,-9.053842e-06,-1.428793e-05
1.195000e-10,-9.046161e-06,-1.428025e-05
1.197500e-10,-9.041954e-06,-1.427605e-05
1.200000e-10,-9.041488e-06,-1.427558e-05
1.202500e-10,-9.043711e-06,-1.427780e-05
1.205000e-10,-9.046862e-06,-1.428095e-05
1.207500e-10,-9.049216e-06,-1.428331e-05
1.210000e-10,-9.049671e-06,-1.428376e-05
1.212500e-10,-9.048008e-06,-1.428210e-05
1.215000e-10,-9.044785e-06,-1.427888e-05
1.217500e-10,-9.040985e-06,-1.427508e-05
1.220000e-10,-9.037582e-06,-1.427167e-05
1.222500e-10,-9.035201e-06,-1.426929e-05
